ZPLOT2 ASCII
  4294A REV1.11
  DATE:     24 -100
  
  
  MEASURE PARAMETER: IMPEDANCE RESISTANCE - REACTANCE
  ADAPTER: NONE
  SWEEP TYPE: LOG FREQ
  NUMBER of POINTS: 128
  POINT DELAY TIME:  0 Sec
  SWEEP DELAY TIME:  0 Sec
  OSC LEVEL:  500 mVolt
  DC BIAS: OFF
  BW: 1
  SWEEP AVERAGING: 4
  POINT AVERAGING: 4
  
  
  TRACE: A
  FORMAT: LINEAR
  
  Frequency"	"Data Trace Real"	"Data Trace Imag
  Begin User Comments:        0
  End User Comments:          0
  Begin Information:          Cell Information
    Surface Area:             1
    Density:                  0
    Weight:                   0
    Polarity:                 0
    PolarityI:                0
    Corrosion Unit Type:      0
    Reference Type:           0
    Reference Potential:      0
    User-Defined Potential:   0
    Stern-Geary:              26
  End Information:            Cell Information
  Null Configuration:         0,2,0,1,0.1,65000
  Data Points:                127
  Freq(Hz)	Ampl	Bias	Time(Sec)	Z'(a)	Z''(b)	Aux	Err	Range
End Comments
1.000000E+03	0.0000E+00	0.0000E+00	1.000000E+00	1.800870E+04	-1.009161E+04	0.000000E+00	0	0
1.094889E+03	0.0000E+00	0.0000E+00	2.000000E+00	1.792937E+04	-9.287309E+03	0.000000E+00	0	0
1.198782E+03	0.0000E+00	0.0000E+00	3.000000E+00	1.785345E+04	-8.566793E+03	0.000000E+00	0	0
1.312533E+03	0.0000E+00	0.0000E+00	4.000000E+00	1.778296E+04	-7.896564E+03	0.000000E+00	0	0
1.437078E+03	0.0000E+00	0.0000E+00	5.000000E+00	1.771637E+04	-7.281711E+03	0.000000E+00	0	0
1.573441E+03	0.0000E+00	0.0000E+00	6.000000E+00	1.765686E+04	-6.716166E+03	0.000000E+00	0	0
1.722743E+03	0.0000E+00	0.0000E+00	7.000000E+00	1.759875E+04	-6.190873E+03	0.000000E+00	0	0
1.886212E+03	0.0000E+00	0.0000E+00	8.000000E+00	1.754977E+04	-5.709027E+03	0.000000E+00	0	0
2.065193E+03	0.0000E+00	0.0000E+00	9.000000E+00	1.750172E+04	-5.270199E+03	0.000000E+00	0	0
2.261157E+03	0.0000E+00	0.0000E+00	1.000000E+01	1.745680E+04	-4.858722E+03	0.000000E+00	0	0
2.475716E+03	0.0000E+00	0.0000E+00	1.100000E+01	1.741492E+04	-4.479298E+03	0.000000E+00	0	0
2.710634E+03	0.0000E+00	0.0000E+00	1.200000E+01	1.737603E+04	-4.135562E+03	0.000000E+00	0	0
2.967843E+03	0.0000E+00	0.0000E+00	1.300000E+01	1.734050E+04	-3.814720E+03	0.000000E+00	0	0
3.249459E+03	0.0000E+00	0.0000E+00	1.400000E+01	1.730995E+04	-3.518737E+03	0.000000E+00	0	0
3.557796E+03	0.0000E+00	0.0000E+00	1.500000E+01	1.727502E+04	-3.256543E+03	0.000000E+00	0	0
3.895392E+03	0.0000E+00	0.0000E+00	1.600000E+01	1.724110E+04	-3.008001E+03	0.000000E+00	0	0
4.265022E+03	0.0000E+00	0.0000E+00	1.700000E+01	1.721285E+04	-2.789577E+03	0.000000E+00	0	0
4.669725E+03	0.0000E+00	0.0000E+00	1.800000E+01	1.718526E+04	-2.579711E+03	0.000000E+00	0	0
5.112831E+03	0.0000E+00	0.0000E+00	1.900000E+01	1.715650E+04	-2.389642E+03	0.000000E+00	0	0
5.597982E+03	0.0000E+00	0.0000E+00	2.000000E+01	1.712815E+04	-2.211859E+03	0.000000E+00	0	0
6.129169E+03	0.0000E+00	0.0000E+00	2.100000E+01	1.710755E+04	-2.054529E+03	0.000000E+00	0	0
6.710759E+03	0.0000E+00	0.0000E+00	2.200000E+01	1.707826E+04	-1.914139E+03	0.000000E+00	0	0
7.347536E+03	0.0000E+00	0.0000E+00	2.300000E+01	1.705537E+04	-1.778520E+03	0.000000E+00	0	0
8.044736E+03	0.0000E+00	0.0000E+00	2.400000E+01	1.703199E+04	-1.649910E+03	0.000000E+00	0	0
8.808093E+03	0.0000E+00	0.0000E+00	2.500000E+01	1.700830E+04	-1.541339E+03	0.000000E+00	0	0
9.643884E+03	0.0000E+00	0.0000E+00	2.600000E+01	1.699040E+04	-1.437278E+03	0.000000E+00	0	0
1.055898E+04	0.0000E+00	0.0000E+00	2.700000E+01	1.696360E+04	-1.347227E+03	0.000000E+00	0	0
1.156091E+04	0.0000E+00	0.0000E+00	2.800000E+01	1.694150E+04	-1.257958E+03	0.000000E+00	0	0
1.265792E+04	0.0000E+00	0.0000E+00	2.900000E+01	1.691959E+04	-1.185920E+03	0.000000E+00	0	0
1.385901E+04	0.0000E+00	0.0000E+00	3.000000E+01	1.689608E+04	-1.110133E+03	0.000000E+00	0	0
1.517408E+04	0.0000E+00	0.0000E+00	3.100000E+01	1.687850E+04	-1.050167E+03	0.000000E+00	0	0
1.661393E+04	0.0000E+00	0.0000E+00	3.200000E+01	1.685365E+04	-9.798208E+02	0.000000E+00	0	0
1.819041E+04	0.0000E+00	0.0000E+00	3.300000E+01	1.683752E+04	-9.202285E+02	0.000000E+00	0	0
1.991648E+04	0.0000E+00	0.0000E+00	3.400000E+01	1.681462E+04	-8.769910E+02	0.000000E+00	0	0
2.180633E+04	0.0000E+00	0.0000E+00	3.500000E+01	1.679698E+04	-8.183403E+02	0.000000E+00	0	0
2.387551E+04	0.0000E+00	0.0000E+00	3.600000E+01	1.677835E+04	-7.886675E+02	0.000000E+00	0	0
2.614104E+04	0.0000E+00	0.0000E+00	3.700000E+01	1.676025E+04	-7.440386E+02	0.000000E+00	0	0
2.862153E+04	0.0000E+00	0.0000E+00	3.800000E+01	1.674137E+04	-7.083279E+02	0.000000E+00	0	0
3.133740E+04	0.0000E+00	0.0000E+00	3.900000E+01	1.672412E+04	-6.761917E+02	0.000000E+00	0	0
3.431098E+04	0.0000E+00	0.0000E+00	4.000000E+01	1.670363E+04	-6.478789E+02	0.000000E+00	0	0
3.756671E+04	0.0000E+00	0.0000E+00	4.100000E+01	1.669207E+04	-6.235552E+02	0.000000E+00	0	0
4.113138E+04	0.0000E+00	0.0000E+00	4.200000E+01	1.667254E+04	-5.970063E+02	0.000000E+00	0	0
4.503429E+04	0.0000E+00	0.0000E+00	4.300000E+01	1.665627E+04	-5.815403E+02	0.000000E+00	0	0
4.930755E+04	0.0000E+00	0.0000E+00	4.400000E+01	1.663687E+04	-5.562258E+02	0.000000E+00	0	0
5.398629E+04	0.0000E+00	0.0000E+00	4.500000E+01	1.662460E+04	-5.422046E+02	0.000000E+00	0	0
5.910899E+04	0.0000E+00	0.0000E+00	4.600000E+01	1.661024E+04	-5.293323E+02	0.000000E+00	0	0
6.471778E+04	0.0000E+00	0.0000E+00	4.700000E+01	1.659155E+04	-5.138744E+02	0.000000E+00	0	0
7.085879E+04	0.0000E+00	0.0000E+00	4.800000E+01	1.657793E+04	-5.093954E+02	0.000000E+00	0	0
7.758250E+04	0.0000E+00	0.0000E+00	4.900000E+01	1.656075E+04	-5.027380E+02	0.000000E+00	0	0
8.494423E+04	0.0000E+00	0.0000E+00	5.000000E+01	1.654248E+04	-4.966189E+02	0.000000E+00	0	0
9.300449E+04	0.0000E+00	0.0000E+00	5.100000E+01	1.652710E+04	-4.923206E+02	0.000000E+00	0	0
1.018296E+05	0.0000E+00	0.0000E+00	5.200000E+01	1.651362E+04	-4.914054E+02	0.000000E+00	0	0
1.114921E+05	0.0000E+00	0.0000E+00	5.300000E+01	1.649595E+04	-4.936733E+02	0.000000E+00	0	0
1.220715E+05	0.0000E+00	0.0000E+00	5.400000E+01	1.648259E+04	-4.899554E+02	0.000000E+00	0	0
1.336547E+05	0.0000E+00	0.0000E+00	5.500000E+01	1.646906E+04	-4.975314E+02	0.000000E+00	0	0
1.463371E+05	0.0000E+00	0.0000E+00	5.600000E+01	1.645254E+04	-5.081429E+02	0.000000E+00	0	0
1.602228E+05	0.0000E+00	0.0000E+00	5.700000E+01	1.643661E+04	-5.101215E+02	0.000000E+00	0	0
1.754262E+05	0.0000E+00	0.0000E+00	5.800000E+01	1.642382E+04	-5.240042E+02	0.000000E+00	0	0
1.920722E+05	0.0000E+00	0.0000E+00	5.900000E+01	1.640680E+04	-5.329565E+02	0.000000E+00	0	0
2.102978E+05	0.0000E+00	0.0000E+00	6.000000E+01	1.639155E+04	-5.527244E+02	0.000000E+00	0	0
2.302527E+05	0.0000E+00	0.0000E+00	6.100000E+01	1.637846E+04	-5.745342E+02	0.000000E+00	0	0
2.521011E+05	0.0000E+00	0.0000E+00	6.200000E+01	1.636008E+04	-5.852395E+02	0.000000E+00	0	0
2.760228E+05	0.0000E+00	0.0000E+00	6.300000E+01	1.634643E+04	-6.131653E+02	0.000000E+00	0	0
3.022143E+05	0.0000E+00	0.0000E+00	6.400000E+01	1.632980E+04	-6.357294E+02	0.000000E+00	0	0
3.308911E+05	0.0000E+00	0.0000E+00	6.500000E+01	1.631311E+04	-6.665377E+02	0.000000E+00	0	0
3.622890E+05	0.0000E+00	0.0000E+00	6.600000E+01	1.629554E+04	-6.975853E+02	0.000000E+00	0	0
3.966662E+05	0.0000E+00	0.0000E+00	6.700000E+01	1.627847E+04	-7.375742E+02	0.000000E+00	0	0
4.343054E+05	0.0000E+00	0.0000E+00	6.800000E+01	1.626186E+04	-7.758833E+02	0.000000E+00	0	0
4.755162E+05	0.0000E+00	0.0000E+00	6.900000E+01	1.623989E+04	-8.175625E+02	0.000000E+00	0	0
5.206375E+05	0.0000E+00	0.0000E+00	7.000000E+01	1.622101E+04	-8.650958E+02	0.000000E+00	0	0
5.700402E+05	0.0000E+00	0.0000E+00	7.100000E+01	1.620122E+04	-9.174658E+02	0.000000E+00	0	0
6.241308E+05	0.0000E+00	0.0000E+00	7.200000E+01	1.618086E+04	-9.756040E+02	0.000000E+00	0	0
6.833539E+05	0.0000E+00	0.0000E+00	7.300000E+01	1.615807E+04	-1.040709E+03	0.000000E+00	0	0
7.481966E+05	0.0000E+00	0.0000E+00	7.400000E+01	1.613509E+04	-1.105106E+03	0.000000E+00	0	0
8.191922E+05	0.0000E+00	0.0000E+00	7.500000E+01	1.611283E+04	-1.181166E+03	0.000000E+00	0	0
8.969245E+05	0.0000E+00	0.0000E+00	7.600000E+01	1.608546E+04	-1.267736E+03	0.000000E+00	0	0
9.820328E+05	0.0000E+00	0.0000E+00	7.700000E+01	1.605904E+04	-1.358084E+03	0.000000E+00	0	0
1.075217E+06	0.0000E+00	0.0000E+00	7.800000E+01	1.602698E+04	-1.459112E+03	0.000000E+00	0	0
1.177243E+06	0.0000E+00	0.0000E+00	7.900000E+01	1.599314E+04	-1.570996E+03	0.000000E+00	0	0
1.288950E+06	0.0000E+00	0.0000E+00	8.000000E+01	1.595582E+04	-1.690552E+03	0.000000E+00	0	0
1.411258E+06	0.0000E+00	0.0000E+00	8.100000E+01	1.591644E+04	-1.823349E+03	0.000000E+00	0	0
1.545170E+06	0.0000E+00	0.0000E+00	8.200000E+01	1.587153E+04	-1.961575E+03	0.000000E+00	0	0
1.691790E+06	0.0000E+00	0.0000E+00	8.300000E+01	1.581856E+04	-2.114374E+03	0.000000E+00	0	0
1.852322E+06	0.0000E+00	0.0000E+00	8.400000E+01	1.575802E+04	-2.287000E+03	0.000000E+00	0	0
2.028087E+06	0.0000E+00	0.0000E+00	8.500000E+01	1.568963E+04	-2.469790E+03	0.000000E+00	0	0
2.220530E+06	0.0000E+00	0.0000E+00	8.600000E+01	1.561047E+04	-2.669348E+03	0.000000E+00	0	0
2.431234E+06	0.0000E+00	0.0000E+00	8.700000E+01	1.552006E+04	-2.880557E+03	0.000000E+00	0	0
2.661931E+06	0.0000E+00	0.0000E+00	8.800000E+01	1.541746E+04	-3.108148E+03	0.000000E+00	0	0
2.914519E+06	0.0000E+00	0.0000E+00	8.900000E+01	1.529627E+04	-3.357615E+03	0.000000E+00	0	0
3.191075E+06	0.0000E+00	0.0000E+00	9.000000E+01	1.515752E+04	-3.621846E+03	0.000000E+00	0	0
3.493873E+06	0.0000E+00	0.0000E+00	9.100000E+01	1.499641E+04	-3.904509E+03	0.000000E+00	0	0
3.825403E+06	0.0000E+00	0.0000E+00	9.200000E+01	1.480309E+04	-4.201831E+03	0.000000E+00	0	0
4.188391E+06	0.0000E+00	0.0000E+00	9.300000E+01	1.458293E+04	-4.510627E+03	0.000000E+00	0	0
4.585823E+06	0.0000E+00	0.0000E+00	9.400000E+01	1.433845E+04	-4.831188E+03	0.000000E+00	0	0
5.020967E+06	0.0000E+00	0.0000E+00	9.500000E+01	1.405477E+04	-5.159455E+03	0.000000E+00	0	0
5.497402E+06	0.0000E+00	0.0000E+00	9.600000E+01	1.374215E+04	-5.499205E+03	0.000000E+00	0	0
6.019045E+06	0.0000E+00	0.0000E+00	9.700000E+01	1.338715E+04	-5.855962E+03	0.000000E+00	0	0
6.590185E+06	0.0000E+00	0.0000E+00	9.800000E+01	1.294604E+04	-6.222962E+03	0.000000E+00	0	0
7.215521E+06	0.0000E+00	0.0000E+00	9.900000E+01	1.245625E+04	-6.527389E+03	0.000000E+00	0	0
7.900195E+06	0.0000E+00	0.0000E+00	1.000000E+02	1.194704E+04	-6.815441E+03	0.000000E+00	0	0
8.649836E+06	0.0000E+00	0.0000E+00	1.010000E+02	1.139565E+04	-7.080576E+03	0.000000E+00	0	0
9.470610E+06	0.0000E+00	0.0000E+00	1.020000E+02	1.080818E+04	-7.312594E+03	0.000000E+00	0	0
1.036927E+07	0.0000E+00	0.0000E+00	1.030000E+02	1.017971E+04	-7.513904E+03	0.000000E+00	0	0
1.135320E+07	0.0000E+00	0.0000E+00	1.040000E+02	9.519516E+03	-7.656787E+03	0.000000E+00	0	0
1.243049E+07	0.0000E+00	0.0000E+00	1.050000E+02	8.844207E+03	-7.757164E+03	0.000000E+00	0	0
1.361000E+07	0.0000E+00	0.0000E+00	1.060000E+02	8.137422E+03	-7.813915E+03	0.000000E+00	0	0
1.490144E+07	0.0000E+00	0.0000E+00	1.070000E+02	7.401217E+03	-7.772848E+03	0.000000E+00	0	0
1.631543E+07	0.0000E+00	0.0000E+00	1.080000E+02	7.152329E+03	-7.748455E+03	0.000000E+00	0	0
1.786358E+07	0.0000E+00	0.0000E+00	1.090000E+02	6.461117E+03	-7.644915E+03	0.000000E+00	0	0
1.955864E+07	0.0000E+00	0.0000E+00	1.100000E+02	5.852539E+03	-7.489494E+03	0.000000E+00	0	0
2.344654E+07	0.0000E+00	0.0000E+00	1.120000E+02	4.564481E+03	-6.995822E+03	0.000000E+00	0	0
2.567136E+07	0.0000E+00	0.0000E+00	1.130000E+02	4.068214E+03	-6.714982E+03	0.000000E+00	0	0
2.810729E+07	0.0000E+00	0.0000E+00	1.140000E+02	3.598788E+03	-6.425108E+03	0.000000E+00	0	0
3.077436E+07	0.0000E+00	0.0000E+00	1.150000E+02	3.145816E+03	-6.130331E+03	0.000000E+00	0	0
3.369450E+07	0.0000E+00	0.0000E+00	1.160000E+02	2.722769E+03	-5.797289E+03	0.000000E+00	0	0
3.689174E+07	0.0000E+00	0.0000E+00	1.170000E+02	2.361380E+03	-5.464498E+03	0.000000E+00	0	0
4.039236E+07	0.0000E+00	0.0000E+00	1.180000E+02	2.034394E+03	-5.139321E+03	0.000000E+00	0	0
4.422515E+07	0.0000E+00	0.0000E+00	1.190000E+02	1.738583E+03	-4.819143E+03	0.000000E+00	0	0
4.842163E+07	0.0000E+00	0.0000E+00	1.200000E+02	1.472296E+03	-4.502419E+03	0.000000E+00	0	0
5.301630E+07	0.0000E+00	0.0000E+00	1.210000E+02	1.219484E+03	-4.195260E+03	0.000000E+00	0	0
5.804697E+07	0.0000E+00	0.0000E+00	1.220000E+02	1.009007E+03	-3.882147E+03	0.000000E+00	0	0
6.355498E+07	0.0000E+00	0.0000E+00	1.230000E+02	7.985339E+02	-3.577619E+03	0.000000E+00	0	0
6.958565E+07	0.0000E+00	0.0000E+00	1.240000E+02	6.619172E+02	-3.264358E+03	0.000000E+00	0	0
7.618856E+07	0.0000E+00	0.0000E+00	1.250000E+02	5.385610E+02	-2.961422E+03	0.000000E+00	0	0
8.341801E+07	0.0000E+00	0.0000E+00	1.260000E+02	4.473997E+02	-2.695006E+03	0.000000E+00	0	0
9.133346E+07	0.0000E+00	0.0000E+00	1.270000E+02	3.794764E+02	-2.460418E+03	0.000000E+00	0	0
1.000000E+08	0.0000E+00	0.0000E+00	1.280000E+02	3.166547E+02	-2.250318E+03	0.000000E+00	0	0
