ZPLOT2 ASCII
  4294A REV1.11
  DATE:     23 -100
  
  
  MEASURE PARAMETER: IMPEDANCE RESISTANCE - REACTANCE
  ADAPTER: NONE
  SWEEP TYPE: LOG FREQ
  NUMBER of POINTS: 256
  POINT DELAY TIME:  0 Sec
  SWEEP DELAY TIME:  0 Sec
  OSC LEVEL:  500 mVolt
  DC BIAS: OFF
  BW: 1
  SWEEP AVERAGING: 8
  POINT AVERAGING: 4
  
  
  TRACE: A
  FORMAT: LINEAR
  
  Frequency"	"Data Trace Real"	"Data Trace Imag
  Begin User Comments:        0
  End User Comments:          0
  Begin Information:          Cell Information
    Surface Area:             1
    Density:                  0
    Weight:                   0
    Polarity:                 0
    PolarityI:                0
    Corrosion Unit Type:      0
    Reference Type:           0
    Reference Potential:      0
    User-Defined Potential:   0
    Stern-Geary:              26
  End Information:            Cell Information
  Null Configuration:         0,2,0,1,0.1,65000
  Data Points:                252
  Freq(Hz)	Ampl	Bias	Time(Sec)	Z'(a)	Z''(b)	Aux	Err	Range
End Comments
1.000000E+03	0.0000E+00	0.0000E+00	1.000000E+00	5.204595E+03	-9.477589E+02	0.000000E+00	0	0
1.046183E+03	0.0000E+00	0.0000E+00	2.000000E+00	5.191066E+03	-9.201733E+02	0.000000E+00	0	0
1.094500E+03	0.0000E+00	0.0000E+00	3.000000E+00	5.177067E+03	-8.921838E+02	0.000000E+00	0	0
1.145048E+03	0.0000E+00	0.0000E+00	4.000000E+00	5.163646E+03	-8.669387E+02	0.000000E+00	0	0
1.197930E+03	0.0000E+00	0.0000E+00	5.000000E+00	5.150349E+03	-8.422952E+02	0.000000E+00	0	0
1.253254E+03	0.0000E+00	0.0000E+00	6.000000E+00	5.137705E+03	-8.186106E+02	0.000000E+00	0	0
1.311134E+03	0.0000E+00	0.0000E+00	7.000000E+00	5.124938E+03	-7.947415E+02	0.000000E+00	0	0
1.371687E+03	0.0000E+00	0.0000E+00	8.000000E+00	5.112198E+03	-7.723295E+02	0.000000E+00	0	0
1.435036E+03	0.0000E+00	0.0000E+00	9.000000E+00	5.099850E+03	-7.505956E+02	0.000000E+00	0	0
1.501311E+03	0.0000E+00	0.0000E+00	1.000000E+01	5.088425E+03	-7.296973E+02	0.000000E+00	0	0
1.570646E+03	0.0000E+00	0.0000E+00	1.100000E+01	5.076664E+03	-7.093840E+02	0.000000E+00	0	0
1.643184E+03	0.0000E+00	0.0000E+00	1.200000E+01	5.065526E+03	-6.897733E+02	0.000000E+00	0	0
1.719072E+03	0.0000E+00	0.0000E+00	1.300000E+01	5.054507E+03	-6.716467E+02	0.000000E+00	0	0
1.798465E+03	0.0000E+00	0.0000E+00	1.400000E+01	5.043375E+03	-6.534656E+02	0.000000E+00	0	0
1.881524E+03	0.0000E+00	0.0000E+00	1.500000E+01	5.032910E+03	-6.354763E+02	0.000000E+00	0	0
1.968419E+03	0.0000E+00	0.0000E+00	1.600000E+01	5.022564E+03	-6.179504E+02	0.000000E+00	0	0
2.059328E+03	0.0000E+00	0.0000E+00	1.700000E+01	5.011922E+03	-6.019196E+02	0.000000E+00	0	0
2.154435E+03	0.0000E+00	0.0000E+00	1.800000E+01	5.002007E+03	-5.858274E+02	0.000000E+00	0	0
2.253934E+03	0.0000E+00	0.0000E+00	1.900000E+01	4.991897E+03	-5.706006E+02	0.000000E+00	0	0
2.358028E+03	0.0000E+00	0.0000E+00	2.000000E+01	4.981907E+03	-5.556356E+02	0.000000E+00	0	0
2.466930E+03	0.0000E+00	0.0000E+00	2.100000E+01	4.972228E+03	-5.409866E+02	0.000000E+00	0	0
2.580862E+03	0.0000E+00	0.0000E+00	2.200000E+01	4.962742E+03	-5.272749E+02	0.000000E+00	0	0
2.700055E+03	0.0000E+00	0.0000E+00	2.300000E+01	4.953475E+03	-5.136428E+02	0.000000E+00	0	0
2.824752E+03	0.0000E+00	0.0000E+00	2.400000E+01	4.944457E+03	-5.000912E+02	0.000000E+00	0	0
2.955209E+03	0.0000E+00	0.0000E+00	2.500000E+01	4.935503E+03	-4.877648E+02	0.000000E+00	0	0
3.091691E+03	0.0000E+00	0.0000E+00	2.600000E+01	4.926981E+03	-4.749175E+02	0.000000E+00	0	0
3.234476E+03	0.0000E+00	0.0000E+00	2.700000E+01	4.918735E+03	-4.630697E+02	0.000000E+00	0	0
3.383855E+03	0.0000E+00	0.0000E+00	2.800000E+01	4.909707E+03	-4.525051E+02	0.000000E+00	0	0
3.540133E+03	0.0000E+00	0.0000E+00	2.900000E+01	4.900813E+03	-4.410571E+02	0.000000E+00	0	0
3.703629E+03	0.0000E+00	0.0000E+00	3.000000E+01	4.892559E+03	-4.295601E+02	0.000000E+00	0	0
3.874675E+03	0.0000E+00	0.0000E+00	3.100000E+01	4.884146E+03	-4.195417E+02	0.000000E+00	0	0
4.053621E+03	0.0000E+00	0.0000E+00	3.200000E+01	4.876190E+03	-4.075084E+02	0.000000E+00	0	0
4.240831E+03	0.0000E+00	0.0000E+00	3.300000E+01	4.868410E+03	-3.986839E+02	0.000000E+00	0	0
4.436687E+03	0.0000E+00	0.0000E+00	3.400000E+01	4.860665E+03	-3.885792E+02	0.000000E+00	0	0
4.641589E+03	0.0000E+00	0.0000E+00	3.500000E+01	4.852722E+03	-3.781720E+02	0.000000E+00	0	0
4.855953E+03	0.0000E+00	0.0000E+00	3.600000E+01	4.845028E+03	-3.696890E+02	0.000000E+00	0	0
5.080218E+03	0.0000E+00	0.0000E+00	3.700000E+01	4.837392E+03	-3.592954E+02	0.000000E+00	0	0
5.314840E+03	0.0000E+00	0.0000E+00	3.800000E+01	4.829775E+03	-3.512141E+02	0.000000E+00	0	0
5.560298E+03	0.0000E+00	0.0000E+00	3.900000E+01	4.822893E+03	-3.423392E+02	0.000000E+00	0	0
5.817091E+03	0.0000E+00	0.0000E+00	4.000000E+01	4.815398E+03	-3.336515E+02	0.000000E+00	0	0
6.085745E+03	0.0000E+00	0.0000E+00	4.100000E+01	4.809405E+03	-3.240864E+02	0.000000E+00	0	0
6.366805E+03	0.0000E+00	0.0000E+00	4.200000E+01	4.802673E+03	-3.175729E+02	0.000000E+00	0	0
6.660846E+03	0.0000E+00	0.0000E+00	4.300000E+01	4.795927E+03	-3.085075E+02	0.000000E+00	0	0
6.968467E+03	0.0000E+00	0.0000E+00	4.400000E+01	4.789882E+03	-3.007690E+02	0.000000E+00	0	0
7.290295E+03	0.0000E+00	0.0000E+00	4.500000E+01	4.783303E+03	-2.926804E+02	0.000000E+00	0	0
7.626986E+03	0.0000E+00	0.0000E+00	4.600000E+01	4.776248E+03	-2.851038E+02	0.000000E+00	0	0
7.979226E+03	0.0000E+00	0.0000E+00	4.700000E+01	4.771248E+03	-2.763624E+02	0.000000E+00	0	0
8.347734E+03	0.0000E+00	0.0000E+00	4.800000E+01	4.765470E+03	-2.697468E+02	0.000000E+00	0	0
8.733262E+03	0.0000E+00	0.0000E+00	4.900000E+01	4.761105E+03	-2.616062E+02	0.000000E+00	0	0
9.136594E+03	0.0000E+00	0.0000E+00	5.000000E+01	4.754863E+03	-2.549021E+02	0.000000E+00	0	0
9.558553E+03	0.0000E+00	0.0000E+00	5.100000E+01	4.748944E+03	-2.477735E+02	0.000000E+00	0	0
1.000000E+04	0.0000E+00	0.0000E+00	5.200000E+01	4.743882E+03	-2.423789E+02	0.000000E+00	0	0
1.046183E+04	0.0000E+00	0.0000E+00	5.300000E+01	4.738196E+03	-2.333924E+02	0.000000E+00	0	0
1.094500E+04	0.0000E+00	0.0000E+00	5.400000E+01	4.733456E+03	-2.262657E+02	0.000000E+00	0	0
1.145048E+04	0.0000E+00	0.0000E+00	5.500000E+01	4.728951E+03	-2.191816E+02	0.000000E+00	0	0
1.197930E+04	0.0000E+00	0.0000E+00	5.600000E+01	4.724324E+03	-2.142190E+02	0.000000E+00	0	0
1.253254E+04	0.0000E+00	0.0000E+00	5.700000E+01	4.720721E+03	-2.079923E+02	0.000000E+00	0	0
1.311134E+04	0.0000E+00	0.0000E+00	5.800000E+01	4.716052E+03	-2.022132E+02	0.000000E+00	0	0
1.371687E+04	0.0000E+00	0.0000E+00	5.900000E+01	4.711673E+03	-1.968995E+02	0.000000E+00	0	0
1.435036E+04	0.0000E+00	0.0000E+00	6.000000E+01	4.709039E+03	-1.909310E+02	0.000000E+00	0	0
1.501311E+04	0.0000E+00	0.0000E+00	6.100000E+01	4.705193E+03	-1.852531E+02	0.000000E+00	0	0
1.570646E+04	0.0000E+00	0.0000E+00	6.200000E+01	4.701530E+03	-1.779141E+02	0.000000E+00	0	0
1.643184E+04	0.0000E+00	0.0000E+00	6.300000E+01	4.696966E+03	-1.733471E+02	0.000000E+00	0	0
1.719072E+04	0.0000E+00	0.0000E+00	6.400000E+01	4.694577E+03	-1.683719E+02	0.000000E+00	0	0
1.798465E+04	0.0000E+00	0.0000E+00	6.500000E+01	4.691797E+03	-1.633026E+02	0.000000E+00	0	0
1.881524E+04	0.0000E+00	0.0000E+00	6.600000E+01	4.688183E+03	-1.583460E+02	0.000000E+00	0	0
1.968419E+04	0.0000E+00	0.0000E+00	6.700000E+01	4.685224E+03	-1.528449E+02	0.000000E+00	0	0
2.059328E+04	0.0000E+00	0.0000E+00	6.800000E+01	4.682026E+03	-1.479599E+02	0.000000E+00	0	0
2.154435E+04	0.0000E+00	0.0000E+00	6.900000E+01	4.680845E+03	-1.424353E+02	0.000000E+00	0	0
2.253934E+04	0.0000E+00	0.0000E+00	7.000000E+01	4.677726E+03	-1.379760E+02	0.000000E+00	0	0
2.358028E+04	0.0000E+00	0.0000E+00	7.100000E+01	4.675414E+03	-1.334959E+02	0.000000E+00	0	0
2.466930E+04	0.0000E+00	0.0000E+00	7.200000E+01	4.673369E+03	-1.305694E+02	0.000000E+00	0	0
2.580862E+04	0.0000E+00	0.0000E+00	7.300000E+01	4.671273E+03	-1.257677E+02	0.000000E+00	0	0
2.700055E+04	0.0000E+00	0.0000E+00	7.400000E+01	4.668670E+03	-1.211713E+02	0.000000E+00	0	0
2.824752E+04	0.0000E+00	0.0000E+00	7.500000E+01	4.667303E+03	-1.179803E+02	0.000000E+00	0	0
2.955209E+04	0.0000E+00	0.0000E+00	7.600000E+01	4.665404E+03	-1.128091E+02	0.000000E+00	0	0
3.091691E+04	0.0000E+00	0.0000E+00	7.700000E+01	4.663833E+03	-1.091505E+02	0.000000E+00	0	0
3.234476E+04	0.0000E+00	0.0000E+00	7.800000E+01	4.662203E+03	-1.058337E+02	0.000000E+00	0	0
3.383855E+04	0.0000E+00	0.0000E+00	7.900000E+01	4.661180E+03	-1.027789E+02	0.000000E+00	0	0
3.540133E+04	0.0000E+00	0.0000E+00	8.000000E+01	4.659438E+03	-9.960576E+01	0.000000E+00	0	0
3.703629E+04	0.0000E+00	0.0000E+00	8.100000E+01	4.657768E+03	-9.675896E+01	0.000000E+00	0	0
3.874675E+04	0.0000E+00	0.0000E+00	8.200000E+01	4.656324E+03	-9.414198E+01	0.000000E+00	0	0
4.053621E+04	0.0000E+00	0.0000E+00	8.300000E+01	4.655034E+03	-9.055005E+01	0.000000E+00	0	0
4.240831E+04	0.0000E+00	0.0000E+00	8.400000E+01	4.654604E+03	-8.806406E+01	0.000000E+00	0	0
4.436687E+04	0.0000E+00	0.0000E+00	8.500000E+01	4.652970E+03	-8.611510E+01	0.000000E+00	0	0
4.641589E+04	0.0000E+00	0.0000E+00	8.600000E+01	4.652193E+03	-8.216521E+01	0.000000E+00	0	0
4.855953E+04	0.0000E+00	0.0000E+00	8.700000E+01	4.651121E+03	-7.960332E+01	0.000000E+00	0	0
5.080218E+04	0.0000E+00	0.0000E+00	8.800000E+01	4.650187E+03	-7.787907E+01	0.000000E+00	0	0
5.314840E+04	0.0000E+00	0.0000E+00	8.900000E+01	4.649341E+03	-7.536795E+01	0.000000E+00	0	0
5.560298E+04	0.0000E+00	0.0000E+00	9.000000E+01	4.648649E+03	-7.299905E+01	0.000000E+00	0	0
5.817091E+04	0.0000E+00	0.0000E+00	9.100000E+01	4.648576E+03	-7.124765E+01	0.000000E+00	0	0
6.085745E+04	0.0000E+00	0.0000E+00	9.200000E+01	4.647723E+03	-6.967728E+01	0.000000E+00	0	0
6.366805E+04	0.0000E+00	0.0000E+00	9.300000E+01	4.646829E+03	-6.842166E+01	0.000000E+00	0	0
6.660846E+04	0.0000E+00	0.0000E+00	9.400000E+01	4.646270E+03	-6.652693E+01	0.000000E+00	0	0
6.968467E+04	0.0000E+00	0.0000E+00	9.500000E+01	4.645434E+03	-6.462430E+01	0.000000E+00	0	0
7.290295E+04	0.0000E+00	0.0000E+00	9.600000E+01	4.645316E+03	-6.438174E+01	0.000000E+00	0	0
7.626986E+04	0.0000E+00	0.0000E+00	9.700000E+01	4.643957E+03	-6.300772E+01	0.000000E+00	0	0
7.979226E+04	0.0000E+00	0.0000E+00	9.800000E+01	4.643818E+03	-6.159838E+01	0.000000E+00	0	0
8.347735E+04	0.0000E+00	0.0000E+00	9.900000E+01	4.642902E+03	-5.997356E+01	0.000000E+00	0	0
8.733262E+04	0.0000E+00	0.0000E+00	1.000000E+02	4.643089E+03	-5.896241E+01	0.000000E+00	0	0
9.136594E+04	0.0000E+00	0.0000E+00	1.010000E+02	4.642249E+03	-5.865060E+01	0.000000E+00	0	0
9.558553E+04	0.0000E+00	0.0000E+00	1.020000E+02	4.641862E+03	-5.755460E+01	0.000000E+00	0	0
1.000000E+05	0.0000E+00	0.0000E+00	1.030000E+02	4.641240E+03	-5.514912E+01	0.000000E+00	0	0
1.046183E+05	0.0000E+00	0.0000E+00	1.040000E+02	4.640604E+03	-5.598655E+01	0.000000E+00	0	0
1.094500E+05	0.0000E+00	0.0000E+00	1.050000E+02	4.640314E+03	-5.489774E+01	0.000000E+00	0	0
1.145048E+05	0.0000E+00	0.0000E+00	1.060000E+02	4.639457E+03	-5.374277E+01	0.000000E+00	0	0
1.197930E+05	0.0000E+00	0.0000E+00	1.070000E+02	4.639241E+03	-5.387054E+01	0.000000E+00	0	0
1.253254E+05	0.0000E+00	0.0000E+00	1.080000E+02	4.639129E+03	-5.350123E+01	0.000000E+00	0	0
1.311134E+05	0.0000E+00	0.0000E+00	1.090000E+02	4.638367E+03	-5.407136E+01	0.000000E+00	0	0
1.371687E+05	0.0000E+00	0.0000E+00	1.100000E+02	4.638199E+03	-5.395125E+01	0.000000E+00	0	0
1.435036E+05	0.0000E+00	0.0000E+00	1.110000E+02	4.637674E+03	-5.434328E+01	0.000000E+00	0	0
1.501311E+05	0.0000E+00	0.0000E+00	1.120000E+02	4.637551E+03	-5.509394E+01	0.000000E+00	0	0
1.570646E+05	0.0000E+00	0.0000E+00	1.130000E+02	4.637203E+03	-5.480408E+01	0.000000E+00	0	0
1.643184E+05	0.0000E+00	0.0000E+00	1.140000E+02	4.636785E+03	-5.423201E+01	0.000000E+00	0	0
1.719072E+05	0.0000E+00	0.0000E+00	1.150000E+02	4.636299E+03	-5.477227E+01	0.000000E+00	0	0
1.798465E+05	0.0000E+00	0.0000E+00	1.160000E+02	4.636064E+03	-5.603929E+01	0.000000E+00	0	0
1.881524E+05	0.0000E+00	0.0000E+00	1.170000E+02	4.635708E+03	-5.628541E+01	0.000000E+00	0	0
1.968419E+05	0.0000E+00	0.0000E+00	1.180000E+02	4.634831E+03	-5.663253E+01	0.000000E+00	0	0
2.059328E+05	0.0000E+00	0.0000E+00	1.190000E+02	4.635130E+03	-5.794312E+01	0.000000E+00	0	0
2.154435E+05	0.0000E+00	0.0000E+00	1.200000E+02	4.634540E+03	-5.862238E+01	0.000000E+00	0	0
2.253934E+05	0.0000E+00	0.0000E+00	1.210000E+02	4.633691E+03	-5.958298E+01	0.000000E+00	0	0
2.358028E+05	0.0000E+00	0.0000E+00	1.220000E+02	4.633598E+03	-6.048721E+01	0.000000E+00	0	0
2.466930E+05	0.0000E+00	0.0000E+00	1.230000E+02	4.633077E+03	-6.173200E+01	0.000000E+00	0	0
2.580862E+05	0.0000E+00	0.0000E+00	1.240000E+02	4.632363E+03	-6.279259E+01	0.000000E+00	0	0
2.700055E+05	0.0000E+00	0.0000E+00	1.250000E+02	4.631578E+03	-6.382153E+01	0.000000E+00	0	0
2.824752E+05	0.0000E+00	0.0000E+00	1.260000E+02	4.631210E+03	-6.553122E+01	0.000000E+00	0	0
2.955209E+05	0.0000E+00	0.0000E+00	1.270000E+02	4.630604E+03	-6.762335E+01	0.000000E+00	0	0
3.091691E+05	0.0000E+00	0.0000E+00	1.280000E+02	4.629909E+03	-6.950464E+01	0.000000E+00	0	0
3.234476E+05	0.0000E+00	0.0000E+00	1.290000E+02	4.629744E+03	-7.062903E+01	0.000000E+00	0	0
3.383855E+05	0.0000E+00	0.0000E+00	1.300000E+02	4.628828E+03	-7.272998E+01	0.000000E+00	0	0
3.540133E+05	0.0000E+00	0.0000E+00	1.310000E+02	4.627875E+03	-7.499376E+01	0.000000E+00	0	0
3.703629E+05	0.0000E+00	0.0000E+00	1.320000E+02	4.627388E+03	-7.650035E+01	0.000000E+00	0	0
3.874675E+05	0.0000E+00	0.0000E+00	1.330000E+02	4.626691E+03	-7.919972E+01	0.000000E+00	0	0
4.053621E+05	0.0000E+00	0.0000E+00	1.340000E+02	4.625912E+03	-8.108836E+01	0.000000E+00	0	0
4.240831E+05	0.0000E+00	0.0000E+00	1.350000E+02	4.625003E+03	-8.352670E+01	0.000000E+00	0	0
4.436687E+05	0.0000E+00	0.0000E+00	1.360000E+02	4.624139E+03	-8.631395E+01	0.000000E+00	0	0
4.641589E+05	0.0000E+00	0.0000E+00	1.370000E+02	4.623244E+03	-8.861456E+01	0.000000E+00	0	0
4.855953E+05	0.0000E+00	0.0000E+00	1.380000E+02	4.622316E+03	-9.093454E+01	0.000000E+00	0	0
5.080218E+05	0.0000E+00	0.0000E+00	1.390000E+02	4.621008E+03	-9.369472E+01	0.000000E+00	0	0
5.314840E+05	0.0000E+00	0.0000E+00	1.400000E+02	4.620560E+03	-9.749876E+01	0.000000E+00	0	0
5.560298E+05	0.0000E+00	0.0000E+00	1.410000E+02	4.619611E+03	-9.993875E+01	0.000000E+00	0	0
5.817091E+05	0.0000E+00	0.0000E+00	1.420000E+02	4.618189E+03	-1.033768E+02	0.000000E+00	0	0
6.085745E+05	0.0000E+00	0.0000E+00	1.430000E+02	4.617020E+03	-1.067880E+02	0.000000E+00	0	0
6.366805E+05	0.0000E+00	0.0000E+00	1.440000E+02	4.616082E+03	-1.108082E+02	0.000000E+00	0	0
6.660846E+05	0.0000E+00	0.0000E+00	1.450000E+02	4.614839E+03	-1.143166E+02	0.000000E+00	0	0
6.968467E+05	0.0000E+00	0.0000E+00	1.460000E+02	4.614042E+03	-1.188968E+02	0.000000E+00	0	0
7.290295E+05	0.0000E+00	0.0000E+00	1.470000E+02	4.612397E+03	-1.213239E+02	0.000000E+00	0	0
7.626986E+05	0.0000E+00	0.0000E+00	1.480000E+02	4.611019E+03	-1.256669E+02	0.000000E+00	0	0
7.979226E+05	0.0000E+00	0.0000E+00	1.490000E+02	4.609778E+03	-1.294230E+02	0.000000E+00	0	0
8.347734E+05	0.0000E+00	0.0000E+00	1.500000E+02	4.608465E+03	-1.351057E+02	0.000000E+00	0	0
8.733262E+05	0.0000E+00	0.0000E+00	1.510000E+02	4.606984E+03	-1.400786E+02	0.000000E+00	0	0
9.136594E+05	0.0000E+00	0.0000E+00	1.520000E+02	4.605584E+03	-1.440319E+02	0.000000E+00	0	0
9.558553E+05	0.0000E+00	0.0000E+00	1.530000E+02	4.603857E+03	-1.491870E+02	0.000000E+00	0	0
1.000000E+06	0.0000E+00	0.0000E+00	1.540000E+02	4.602299E+03	-1.543327E+02	0.000000E+00	0	0
1.046183E+06	0.0000E+00	0.0000E+00	1.550000E+02	4.600178E+03	-1.605632E+02	0.000000E+00	0	0
1.094500E+06	0.0000E+00	0.0000E+00	1.560000E+02	4.598204E+03	-1.668752E+02	0.000000E+00	0	0
1.145048E+06	0.0000E+00	0.0000E+00	1.570000E+02	4.596362E+03	-1.726312E+02	0.000000E+00	0	0
1.197930E+06	0.0000E+00	0.0000E+00	1.580000E+02	4.593919E+03	-1.795923E+02	0.000000E+00	0	0
1.253254E+06	0.0000E+00	0.0000E+00	1.590000E+02	4.591914E+03	-1.849944E+02	0.000000E+00	0	0
1.311134E+06	0.0000E+00	0.0000E+00	1.600000E+02	4.589703E+03	-1.928634E+02	0.000000E+00	0	0
1.371687E+06	0.0000E+00	0.0000E+00	1.610000E+02	4.587650E+03	-1.990614E+02	0.000000E+00	0	0
1.435036E+06	0.0000E+00	0.0000E+00	1.620000E+02	4.585339E+03	-2.065079E+02	0.000000E+00	0	0
1.501311E+06	0.0000E+00	0.0000E+00	1.630000E+02	4.583010E+03	-2.130520E+02	0.000000E+00	0	0
1.570646E+06	0.0000E+00	0.0000E+00	1.640000E+02	4.580742E+03	-2.210997E+02	0.000000E+00	0	0
1.643184E+06	0.0000E+00	0.0000E+00	1.650000E+02	4.578023E+03	-2.291769E+02	0.000000E+00	0	0
1.719072E+06	0.0000E+00	0.0000E+00	1.660000E+02	4.575059E+03	-2.373382E+02	0.000000E+00	0	0
1.798465E+06	0.0000E+00	0.0000E+00	1.670000E+02	4.572465E+03	-2.463637E+02	0.000000E+00	0	0
1.881524E+06	0.0000E+00	0.0000E+00	1.680000E+02	4.569455E+03	-2.551826E+02	0.000000E+00	0	0
1.968419E+06	0.0000E+00	0.0000E+00	1.690000E+02	4.566014E+03	-2.648466E+02	0.000000E+00	0	0
2.059328E+06	0.0000E+00	0.0000E+00	1.700000E+02	4.563018E+03	-2.742300E+02	0.000000E+00	0	0
2.154435E+06	0.0000E+00	0.0000E+00	1.710000E+02	4.559963E+03	-2.845808E+02	0.000000E+00	0	0
2.253934E+06	0.0000E+00	0.0000E+00	1.720000E+02	4.556676E+03	-2.947585E+02	0.000000E+00	0	0
2.358028E+06	0.0000E+00	0.0000E+00	1.730000E+02	4.553164E+03	-3.052629E+02	0.000000E+00	0	0
2.466930E+06	0.0000E+00	0.0000E+00	1.740000E+02	4.549861E+03	-3.165947E+02	0.000000E+00	0	0
2.580862E+06	0.0000E+00	0.0000E+00	1.750000E+02	4.545705E+03	-3.288509E+02	0.000000E+00	0	0
2.700055E+06	0.0000E+00	0.0000E+00	1.760000E+02	4.541572E+03	-3.407133E+02	0.000000E+00	0	0
2.824752E+06	0.0000E+00	0.0000E+00	1.770000E+02	4.537266E+03	-3.536805E+02	0.000000E+00	0	0
2.955209E+06	0.0000E+00	0.0000E+00	1.780000E+02	4.533216E+03	-3.667352E+02	0.000000E+00	0	0
3.091691E+06	0.0000E+00	0.0000E+00	1.790000E+02	4.528780E+03	-3.807136E+02	0.000000E+00	0	0
3.234476E+06	0.0000E+00	0.0000E+00	1.800000E+02	4.524168E+03	-3.950809E+02	0.000000E+00	0	0
3.383855E+06	0.0000E+00	0.0000E+00	1.810000E+02	4.519146E+03	-4.094550E+02	0.000000E+00	0	0
3.540133E+06	0.0000E+00	0.0000E+00	1.820000E+02	4.513824E+03	-4.253583E+02	0.000000E+00	0	0
3.703629E+06	0.0000E+00	0.0000E+00	1.830000E+02	4.508448E+03	-4.414586E+02	0.000000E+00	0	0
3.874675E+06	0.0000E+00	0.0000E+00	1.840000E+02	4.502676E+03	-4.583628E+02	0.000000E+00	0	0
4.053621E+06	0.0000E+00	0.0000E+00	1.850000E+02	4.496678E+03	-4.761304E+02	0.000000E+00	0	0
4.240831E+06	0.0000E+00	0.0000E+00	1.860000E+02	4.490389E+03	-4.941867E+02	0.000000E+00	0	0
4.436687E+06	0.0000E+00	0.0000E+00	1.870000E+02	4.483400E+03	-5.129471E+02	0.000000E+00	0	0
4.641589E+06	0.0000E+00	0.0000E+00	1.880000E+02	4.476307E+03	-5.331035E+02	0.000000E+00	0	0
4.855953E+06	0.0000E+00	0.0000E+00	1.890000E+02	4.468580E+03	-5.535944E+02	0.000000E+00	0	0
5.080218E+06	0.0000E+00	0.0000E+00	1.900000E+02	4.460549E+03	-5.750129E+02	0.000000E+00	0	0
5.314840E+06	0.0000E+00	0.0000E+00	1.910000E+02	4.451967E+03	-5.970549E+02	0.000000E+00	0	0
5.560298E+06	0.0000E+00	0.0000E+00	1.920000E+02	4.442846E+03	-6.203134E+02	0.000000E+00	0	0
5.817091E+06	0.0000E+00	0.0000E+00	1.930000E+02	4.433026E+03	-6.436854E+02	0.000000E+00	0	0
6.085745E+06	0.0000E+00	0.0000E+00	1.940000E+02	4.422620E+03	-6.685133E+02	0.000000E+00	0	0
6.366805E+06	0.0000E+00	0.0000E+00	1.950000E+02	4.411592E+03	-6.943542E+02	0.000000E+00	0	0
6.660846E+06	0.0000E+00	0.0000E+00	1.960000E+02	4.399883E+03	-7.209363E+02	0.000000E+00	0	0
6.968467E+06	0.0000E+00	0.0000E+00	1.970000E+02	4.387223E+03	-7.485188E+02	0.000000E+00	0	0
7.290295E+06	0.0000E+00	0.0000E+00	1.980000E+02	4.374012E+03	-7.766074E+02	0.000000E+00	0	0
7.626986E+06	0.0000E+00	0.0000E+00	1.990000E+02	4.360195E+03	-8.057288E+02	0.000000E+00	0	0
7.979226E+06	0.0000E+00	0.0000E+00	2.000000E+02	4.346553E+03	-8.353574E+02	0.000000E+00	0	0
8.347734E+06	0.0000E+00	0.0000E+00	2.010000E+02	4.333531E+03	-8.663701E+02	0.000000E+00	0	0
9.558553E+06	0.0000E+00	0.0000E+00	2.040000E+02	4.267891E+03	-9.843997E+02	0.000000E+00	0	0
1.000000E+07	0.0000E+00	0.0000E+00	2.050000E+02	4.244689E+03	-1.018805E+03	0.000000E+00	0	0
