ZPLOT2 ASCII
  4294A REV1.11
  DATE:     23 -100
  
  
  MEASURE PARAMETER: IMPEDANCE RESISTANCE - REACTANCE
  ADAPTER: NONE
  SWEEP TYPE: LOG FREQ
  NUMBER of POINTS: 256
  POINT DELAY TIME:  0 Sec
  SWEEP DELAY TIME:  0 Sec
  OSC LEVEL:  500 mVolt
  DC BIAS: OFF
  BW: 1
  SWEEP AVERAGING: 8
  POINT AVERAGING: 4
  
  
  TRACE: A
  FORMAT: LINEAR
  
  Frequency"	"Data Trace Real"	"Data Trace Imag
  Begin User Comments:        0
  End User Comments:          0
  Begin Information:          Cell Information
    Surface Area:             1
    Density:                  0
    Weight:                   0
    Polarity:                 0
    PolarityI:                0
    Corrosion Unit Type:      0
    Reference Type:           0
    Reference Potential:      0
    User-Defined Potential:   0
    Stern-Geary:              26
  End Information:            Cell Information
  Null Configuration:         0,2,0,1,0.1,65000
  Data Points:                252
  Freq(Hz)	Ampl	Bias	Time(Sec)	Z'(a)	Z''(b)	Aux	Err	Range
End Comments
1.000000E+03	0.0000E+00	0.0000E+00	1.000000E+00	5.147813E+03	-9.729792E+02	0.000000E+00	0	0
1.046183E+03	0.0000E+00	0.0000E+00	2.000000E+00	5.134542E+03	-9.436851E+02	0.000000E+00	0	0
1.094500E+03	0.0000E+00	0.0000E+00	3.000000E+00	5.121046E+03	-9.146915E+02	0.000000E+00	0	0
1.145048E+03	0.0000E+00	0.0000E+00	4.000000E+00	5.108172E+03	-8.881870E+02	0.000000E+00	0	0
1.197930E+03	0.0000E+00	0.0000E+00	5.000000E+00	5.095437E+03	-8.614630E+02	0.000000E+00	0	0
1.253254E+03	0.0000E+00	0.0000E+00	6.000000E+00	5.082660E+03	-8.368035E+02	0.000000E+00	0	0
1.311134E+03	0.0000E+00	0.0000E+00	7.000000E+00	5.070691E+03	-8.119554E+02	0.000000E+00	0	0
1.371687E+03	0.0000E+00	0.0000E+00	8.000000E+00	5.058753E+03	-7.884272E+02	0.000000E+00	0	0
1.435036E+03	0.0000E+00	0.0000E+00	9.000000E+00	5.046840E+03	-7.654918E+02	0.000000E+00	0	0
1.501311E+03	0.0000E+00	0.0000E+00	1.000000E+01	5.035660E+03	-7.432445E+02	0.000000E+00	0	0
1.570646E+03	0.0000E+00	0.0000E+00	1.100000E+01	5.024709E+03	-7.221180E+02	0.000000E+00	0	0
1.643184E+03	0.0000E+00	0.0000E+00	1.200000E+01	5.013737E+03	-7.018066E+02	0.000000E+00	0	0
1.719072E+03	0.0000E+00	0.0000E+00	1.300000E+01	5.002705E+03	-6.832681E+02	0.000000E+00	0	0
1.798465E+03	0.0000E+00	0.0000E+00	1.400000E+01	4.991936E+03	-6.640707E+02	0.000000E+00	0	0
1.881524E+03	0.0000E+00	0.0000E+00	1.500000E+01	4.981778E+03	-6.449110E+02	0.000000E+00	0	0
1.968419E+03	0.0000E+00	0.0000E+00	1.600000E+01	4.971770E+03	-6.275208E+02	0.000000E+00	0	0
2.059328E+03	0.0000E+00	0.0000E+00	1.700000E+01	4.961847E+03	-6.098196E+02	0.000000E+00	0	0
2.154435E+03	0.0000E+00	0.0000E+00	1.800000E+01	4.951726E+03	-5.942365E+02	0.000000E+00	0	0
2.253934E+03	0.0000E+00	0.0000E+00	1.900000E+01	4.942382E+03	-5.779192E+02	0.000000E+00	0	0
2.358028E+03	0.0000E+00	0.0000E+00	2.000000E+01	4.932683E+03	-5.621703E+02	0.000000E+00	0	0
2.466930E+03	0.0000E+00	0.0000E+00	2.100000E+01	4.923087E+03	-5.474888E+02	0.000000E+00	0	0
2.580862E+03	0.0000E+00	0.0000E+00	2.200000E+01	4.913801E+03	-5.323336E+02	0.000000E+00	0	0
2.700055E+03	0.0000E+00	0.0000E+00	2.300000E+01	4.904765E+03	-5.192340E+02	0.000000E+00	0	0
2.824752E+03	0.0000E+00	0.0000E+00	2.400000E+01	4.896136E+03	-5.055995E+02	0.000000E+00	0	0
2.955209E+03	0.0000E+00	0.0000E+00	2.500000E+01	4.887204E+03	-4.922225E+02	0.000000E+00	0	0
3.091691E+03	0.0000E+00	0.0000E+00	2.600000E+01	4.879097E+03	-4.796610E+02	0.000000E+00	0	0
3.234476E+03	0.0000E+00	0.0000E+00	2.700000E+01	4.870370E+03	-4.677144E+02	0.000000E+00	0	0
3.383855E+03	0.0000E+00	0.0000E+00	2.800000E+01	4.862276E+03	-4.554814E+02	0.000000E+00	0	0
3.540133E+03	0.0000E+00	0.0000E+00	2.900000E+01	4.853988E+03	-4.445696E+02	0.000000E+00	0	0
3.703629E+03	0.0000E+00	0.0000E+00	3.000000E+01	4.845564E+03	-4.328851E+02	0.000000E+00	0	0
3.874675E+03	0.0000E+00	0.0000E+00	3.100000E+01	4.837561E+03	-4.218077E+02	0.000000E+00	0	0
4.053621E+03	0.0000E+00	0.0000E+00	3.200000E+01	4.829335E+03	-4.119975E+02	0.000000E+00	0	0
4.240831E+03	0.0000E+00	0.0000E+00	3.300000E+01	4.821717E+03	-4.005328E+02	0.000000E+00	0	0
4.436687E+03	0.0000E+00	0.0000E+00	3.400000E+01	4.813564E+03	-3.908065E+02	0.000000E+00	0	0
4.641589E+03	0.0000E+00	0.0000E+00	3.500000E+01	4.805846E+03	-3.807376E+02	0.000000E+00	0	0
4.855953E+03	0.0000E+00	0.0000E+00	3.600000E+01	4.798604E+03	-3.709380E+02	0.000000E+00	0	0
5.080218E+03	0.0000E+00	0.0000E+00	3.700000E+01	4.791433E+03	-3.616227E+02	0.000000E+00	0	0
5.314840E+03	0.0000E+00	0.0000E+00	3.800000E+01	4.784499E+03	-3.531900E+02	0.000000E+00	0	0
5.560298E+03	0.0000E+00	0.0000E+00	3.900000E+01	4.777138E+03	-3.444356E+02	0.000000E+00	0	0
5.817091E+03	0.0000E+00	0.0000E+00	4.000000E+01	4.770124E+03	-3.353354E+02	0.000000E+00	0	0
6.085745E+03	0.0000E+00	0.0000E+00	4.100000E+01	4.763616E+03	-3.263584E+02	0.000000E+00	0	0
6.366805E+03	0.0000E+00	0.0000E+00	4.200000E+01	4.756679E+03	-3.181782E+02	0.000000E+00	0	0
6.660846E+03	0.0000E+00	0.0000E+00	4.300000E+01	4.750112E+03	-3.106966E+02	0.000000E+00	0	0
6.968467E+03	0.0000E+00	0.0000E+00	4.400000E+01	4.743438E+03	-3.024568E+02	0.000000E+00	0	0
7.290295E+03	0.0000E+00	0.0000E+00	4.500000E+01	4.736826E+03	-2.929708E+02	0.000000E+00	0	0
7.626986E+03	0.0000E+00	0.0000E+00	4.600000E+01	4.732721E+03	-2.857491E+02	0.000000E+00	0	0
7.979226E+03	0.0000E+00	0.0000E+00	4.700000E+01	4.726562E+03	-2.776593E+02	0.000000E+00	0	0
8.347734E+03	0.0000E+00	0.0000E+00	4.800000E+01	4.720924E+03	-2.709761E+02	0.000000E+00	0	0
8.733262E+03	0.0000E+00	0.0000E+00	4.900000E+01	4.714548E+03	-2.631154E+02	0.000000E+00	0	0
9.136594E+03	0.0000E+00	0.0000E+00	5.000000E+01	4.709187E+03	-2.553468E+02	0.000000E+00	0	0
9.558553E+03	0.0000E+00	0.0000E+00	5.100000E+01	4.703607E+03	-2.484406E+02	0.000000E+00	0	0
1.000000E+04	0.0000E+00	0.0000E+00	5.200000E+01	4.699088E+03	-2.419668E+02	0.000000E+00	0	0
1.046183E+04	0.0000E+00	0.0000E+00	5.300000E+01	4.694002E+03	-2.353872E+02	0.000000E+00	0	0
1.094500E+04	0.0000E+00	0.0000E+00	5.400000E+01	4.688723E+03	-2.285191E+02	0.000000E+00	0	0
1.145048E+04	0.0000E+00	0.0000E+00	5.500000E+01	4.684049E+03	-2.223043E+02	0.000000E+00	0	0
1.197930E+04	0.0000E+00	0.0000E+00	5.600000E+01	4.680150E+03	-2.151721E+02	0.000000E+00	0	0
1.253254E+04	0.0000E+00	0.0000E+00	5.700000E+01	4.675111E+03	-2.107746E+02	0.000000E+00	0	0
1.311134E+04	0.0000E+00	0.0000E+00	5.800000E+01	4.670504E+03	-2.031335E+02	0.000000E+00	0	0
1.371687E+04	0.0000E+00	0.0000E+00	5.900000E+01	4.666208E+03	-1.983390E+02	0.000000E+00	0	0
1.435036E+04	0.0000E+00	0.0000E+00	6.000000E+01	4.663002E+03	-1.914209E+02	0.000000E+00	0	0
1.501311E+04	0.0000E+00	0.0000E+00	6.100000E+01	4.660006E+03	-1.866972E+02	0.000000E+00	0	0
1.570646E+04	0.0000E+00	0.0000E+00	6.200000E+01	4.655760E+03	-1.794555E+02	0.000000E+00	0	0
1.643184E+04	0.0000E+00	0.0000E+00	6.300000E+01	4.652176E+03	-1.749590E+02	0.000000E+00	0	0
1.719072E+04	0.0000E+00	0.0000E+00	6.400000E+01	4.648559E+03	-1.687499E+02	0.000000E+00	0	0
1.798465E+04	0.0000E+00	0.0000E+00	6.500000E+01	4.645726E+03	-1.642144E+02	0.000000E+00	0	0
1.881524E+04	0.0000E+00	0.0000E+00	6.600000E+01	4.643533E+03	-1.591920E+02	0.000000E+00	0	0
1.968419E+04	0.0000E+00	0.0000E+00	6.700000E+01	4.640629E+03	-1.533347E+02	0.000000E+00	0	0
2.059328E+04	0.0000E+00	0.0000E+00	6.800000E+01	4.637683E+03	-1.481850E+02	0.000000E+00	0	0
2.154435E+04	0.0000E+00	0.0000E+00	6.900000E+01	4.634617E+03	-1.432841E+02	0.000000E+00	0	0
2.253934E+04	0.0000E+00	0.0000E+00	7.000000E+01	4.632609E+03	-1.396158E+02	0.000000E+00	0	0
2.358028E+04	0.0000E+00	0.0000E+00	7.100000E+01	4.630037E+03	-1.346033E+02	0.000000E+00	0	0
2.466930E+04	0.0000E+00	0.0000E+00	7.200000E+01	4.628325E+03	-1.302756E+02	0.000000E+00	0	0
2.580862E+04	0.0000E+00	0.0000E+00	7.300000E+01	4.625284E+03	-1.272401E+02	0.000000E+00	0	0
2.700055E+04	0.0000E+00	0.0000E+00	7.400000E+01	4.624025E+03	-1.226132E+02	0.000000E+00	0	0
2.824752E+04	0.0000E+00	0.0000E+00	7.500000E+01	4.621869E+03	-1.183353E+02	0.000000E+00	0	0
2.955209E+04	0.0000E+00	0.0000E+00	7.600000E+01	4.620051E+03	-1.140358E+02	0.000000E+00	0	0
3.091691E+04	0.0000E+00	0.0000E+00	7.700000E+01	4.618631E+03	-1.107926E+02	0.000000E+00	0	0
3.234476E+04	0.0000E+00	0.0000E+00	7.800000E+01	4.616989E+03	-1.071296E+02	0.000000E+00	0	0
3.383855E+04	0.0000E+00	0.0000E+00	7.900000E+01	4.615793E+03	-1.034046E+02	0.000000E+00	0	0
3.540133E+04	0.0000E+00	0.0000E+00	8.000000E+01	4.614734E+03	-9.901877E+01	0.000000E+00	0	0
3.703629E+04	0.0000E+00	0.0000E+00	8.100000E+01	4.612883E+03	-9.752271E+01	0.000000E+00	0	0
3.874675E+04	0.0000E+00	0.0000E+00	8.200000E+01	4.611172E+03	-9.357983E+01	0.000000E+00	0	0
4.053621E+04	0.0000E+00	0.0000E+00	8.300000E+01	4.610278E+03	-9.183714E+01	0.000000E+00	0	0
4.240831E+04	0.0000E+00	0.0000E+00	8.400000E+01	4.608550E+03	-8.824477E+01	0.000000E+00	0	0
4.436687E+04	0.0000E+00	0.0000E+00	8.500000E+01	4.608105E+03	-8.626956E+01	0.000000E+00	0	0
4.641589E+04	0.0000E+00	0.0000E+00	8.600000E+01	4.607006E+03	-8.351814E+01	0.000000E+00	0	0
4.855953E+04	0.0000E+00	0.0000E+00	8.700000E+01	4.605965E+03	-7.999313E+01	0.000000E+00	0	0
5.080218E+04	0.0000E+00	0.0000E+00	8.800000E+01	4.605152E+03	-7.868272E+01	0.000000E+00	0	0
5.314840E+04	0.0000E+00	0.0000E+00	8.900000E+01	4.604555E+03	-7.604292E+01	0.000000E+00	0	0
5.560298E+04	0.0000E+00	0.0000E+00	9.000000E+01	4.603156E+03	-7.380331E+01	0.000000E+00	0	0
5.817091E+04	0.0000E+00	0.0000E+00	9.100000E+01	4.602703E+03	-7.226840E+01	0.000000E+00	0	0
6.085745E+04	0.0000E+00	0.0000E+00	9.200000E+01	4.601960E+03	-7.026859E+01	0.000000E+00	0	0
6.366805E+04	0.0000E+00	0.0000E+00	9.300000E+01	4.601722E+03	-6.819507E+01	0.000000E+00	0	0
6.660846E+04	0.0000E+00	0.0000E+00	9.400000E+01	4.600693E+03	-6.682979E+01	0.000000E+00	0	0
6.968467E+04	0.0000E+00	0.0000E+00	9.500000E+01	4.599960E+03	-6.580051E+01	0.000000E+00	0	0
7.290295E+04	0.0000E+00	0.0000E+00	9.600000E+01	4.599300E+03	-6.350788E+01	0.000000E+00	0	0
7.626986E+04	0.0000E+00	0.0000E+00	9.700000E+01	4.598755E+03	-6.355306E+01	0.000000E+00	0	0
7.979226E+04	0.0000E+00	0.0000E+00	9.800000E+01	4.598172E+03	-6.203481E+01	0.000000E+00	0	0
8.347735E+04	0.0000E+00	0.0000E+00	9.900000E+01	4.597479E+03	-5.970490E+01	0.000000E+00	0	0
8.733262E+04	0.0000E+00	0.0000E+00	1.000000E+02	4.597604E+03	-5.981604E+01	0.000000E+00	0	0
9.136594E+04	0.0000E+00	0.0000E+00	1.010000E+02	4.596837E+03	-5.959460E+01	0.000000E+00	0	0
9.558553E+04	0.0000E+00	0.0000E+00	1.020000E+02	4.596627E+03	-5.772944E+01	0.000000E+00	0	0
1.000000E+05	0.0000E+00	0.0000E+00	1.030000E+02	4.595671E+03	-5.639976E+01	0.000000E+00	0	0
1.046183E+05	0.0000E+00	0.0000E+00	1.040000E+02	4.595461E+03	-5.545998E+01	0.000000E+00	0	0
1.094500E+05	0.0000E+00	0.0000E+00	1.050000E+02	4.594855E+03	-5.454515E+01	0.000000E+00	0	0
1.145048E+05	0.0000E+00	0.0000E+00	1.060000E+02	4.594555E+03	-5.567656E+01	0.000000E+00	0	0
1.197930E+05	0.0000E+00	0.0000E+00	1.070000E+02	4.593996E+03	-5.438636E+01	0.000000E+00	0	0
1.253254E+05	0.0000E+00	0.0000E+00	1.080000E+02	4.593794E+03	-5.439761E+01	0.000000E+00	0	0
1.311134E+05	0.0000E+00	0.0000E+00	1.090000E+02	4.593105E+03	-5.492976E+01	0.000000E+00	0	0
1.371687E+05	0.0000E+00	0.0000E+00	1.100000E+02	4.592954E+03	-5.332104E+01	0.000000E+00	0	0
1.435036E+05	0.0000E+00	0.0000E+00	1.110000E+02	4.592873E+03	-5.479099E+01	0.000000E+00	0	0
1.501311E+05	0.0000E+00	0.0000E+00	1.120000E+02	4.591934E+03	-5.538632E+01	0.000000E+00	0	0
1.570646E+05	0.0000E+00	0.0000E+00	1.130000E+02	4.591879E+03	-5.558006E+01	0.000000E+00	0	0
1.643184E+05	0.0000E+00	0.0000E+00	1.140000E+02	4.591351E+03	-5.555923E+01	0.000000E+00	0	0
1.719072E+05	0.0000E+00	0.0000E+00	1.150000E+02	4.591464E+03	-5.665462E+01	0.000000E+00	0	0
1.798465E+05	0.0000E+00	0.0000E+00	1.160000E+02	4.590932E+03	-5.648653E+01	0.000000E+00	0	0
1.881524E+05	0.0000E+00	0.0000E+00	1.170000E+02	4.591187E+03	-5.655336E+01	0.000000E+00	0	0
1.968419E+05	0.0000E+00	0.0000E+00	1.180000E+02	4.590694E+03	-5.870604E+01	0.000000E+00	0	0
2.059328E+05	0.0000E+00	0.0000E+00	1.190000E+02	4.589904E+03	-5.884944E+01	0.000000E+00	0	0
2.154435E+05	0.0000E+00	0.0000E+00	1.200000E+02	4.589489E+03	-5.904321E+01	0.000000E+00	0	0
2.253934E+05	0.0000E+00	0.0000E+00	1.210000E+02	4.589357E+03	-6.174644E+01	0.000000E+00	0	0
2.358028E+05	0.0000E+00	0.0000E+00	1.220000E+02	4.589066E+03	-6.301971E+01	0.000000E+00	0	0
2.466930E+05	0.0000E+00	0.0000E+00	1.230000E+02	4.588871E+03	-6.308729E+01	0.000000E+00	0	0
2.580862E+05	0.0000E+00	0.0000E+00	1.240000E+02	4.587924E+03	-6.527031E+01	0.000000E+00	0	0
2.700055E+05	0.0000E+00	0.0000E+00	1.250000E+02	4.587951E+03	-6.555243E+01	0.000000E+00	0	0
2.824752E+05	0.0000E+00	0.0000E+00	1.260000E+02	4.586999E+03	-6.846225E+01	0.000000E+00	0	0
2.955209E+05	0.0000E+00	0.0000E+00	1.270000E+02	4.587219E+03	-7.046976E+01	0.000000E+00	0	0
3.091691E+05	0.0000E+00	0.0000E+00	1.280000E+02	4.586464E+03	-7.132413E+01	0.000000E+00	0	0
3.234476E+05	0.0000E+00	0.0000E+00	1.290000E+02	4.585594E+03	-7.295517E+01	0.000000E+00	0	0
3.383855E+05	0.0000E+00	0.0000E+00	1.300000E+02	4.584865E+03	-7.482556E+01	0.000000E+00	0	0
3.540133E+05	0.0000E+00	0.0000E+00	1.310000E+02	4.584543E+03	-7.722194E+01	0.000000E+00	0	0
3.703629E+05	0.0000E+00	0.0000E+00	1.320000E+02	4.583419E+03	-8.019411E+01	0.000000E+00	0	0
3.874675E+05	0.0000E+00	0.0000E+00	1.330000E+02	4.583101E+03	-8.264143E+01	0.000000E+00	0	0
4.053621E+05	0.0000E+00	0.0000E+00	1.340000E+02	4.582884E+03	-8.571252E+01	0.000000E+00	0	0
4.240831E+05	0.0000E+00	0.0000E+00	1.350000E+02	4.581361E+03	-8.801279E+01	0.000000E+00	0	0
4.436687E+05	0.0000E+00	0.0000E+00	1.360000E+02	4.580535E+03	-9.068480E+01	0.000000E+00	0	0
4.641589E+05	0.0000E+00	0.0000E+00	1.370000E+02	4.579646E+03	-9.382053E+01	0.000000E+00	0	0
4.855953E+05	0.0000E+00	0.0000E+00	1.380000E+02	4.578619E+03	-9.637056E+01	0.000000E+00	0	0
5.080218E+05	0.0000E+00	0.0000E+00	1.390000E+02	4.577924E+03	-1.000364E+02	0.000000E+00	0	0
5.314840E+05	0.0000E+00	0.0000E+00	1.400000E+02	4.576734E+03	-1.037956E+02	0.000000E+00	0	0
5.560298E+05	0.0000E+00	0.0000E+00	1.410000E+02	4.575949E+03	-1.070200E+02	0.000000E+00	0	0
5.817091E+05	0.0000E+00	0.0000E+00	1.420000E+02	4.574588E+03	-1.108541E+02	0.000000E+00	0	0
6.085745E+05	0.0000E+00	0.0000E+00	1.430000E+02	4.573577E+03	-1.155120E+02	0.000000E+00	0	0
6.366805E+05	0.0000E+00	0.0000E+00	1.440000E+02	4.572045E+03	-1.193478E+02	0.000000E+00	0	0
6.660846E+05	0.0000E+00	0.0000E+00	1.450000E+02	4.570508E+03	-1.243948E+02	0.000000E+00	0	0
6.968467E+05	0.0000E+00	0.0000E+00	1.460000E+02	4.569234E+03	-1.279363E+02	0.000000E+00	0	0
7.290295E+05	0.0000E+00	0.0000E+00	1.470000E+02	4.567824E+03	-1.320735E+02	0.000000E+00	0	0
7.626986E+05	0.0000E+00	0.0000E+00	1.480000E+02	4.566062E+03	-1.369626E+02	0.000000E+00	0	0
7.979226E+05	0.0000E+00	0.0000E+00	1.490000E+02	4.564023E+03	-1.420141E+02	0.000000E+00	0	0
8.347734E+05	0.0000E+00	0.0000E+00	1.500000E+02	4.562627E+03	-1.470601E+02	0.000000E+00	0	0
8.733262E+05	0.0000E+00	0.0000E+00	1.510000E+02	4.560328E+03	-1.534237E+02	0.000000E+00	0	0
9.136594E+05	0.0000E+00	0.0000E+00	1.520000E+02	4.558278E+03	-1.587730E+02	0.000000E+00	0	0
9.558553E+05	0.0000E+00	0.0000E+00	1.530000E+02	4.556094E+03	-1.639342E+02	0.000000E+00	0	0
1.000000E+06	0.0000E+00	0.0000E+00	1.540000E+02	4.553842E+03	-1.694693E+02	0.000000E+00	0	0
1.046183E+06	0.0000E+00	0.0000E+00	1.550000E+02	4.550807E+03	-1.759146E+02	0.000000E+00	0	0
1.094500E+06	0.0000E+00	0.0000E+00	1.560000E+02	4.548176E+03	-1.823080E+02	0.000000E+00	0	0
1.145048E+06	0.0000E+00	0.0000E+00	1.570000E+02	4.545515E+03	-1.892967E+02	0.000000E+00	0	0
1.197930E+06	0.0000E+00	0.0000E+00	1.580000E+02	4.542275E+03	-1.953169E+02	0.000000E+00	0	0
1.253254E+06	0.0000E+00	0.0000E+00	1.590000E+02	4.539594E+03	-2.023701E+02	0.000000E+00	0	0
1.311134E+06	0.0000E+00	0.0000E+00	1.600000E+02	4.536734E+03	-2.101789E+02	0.000000E+00	0	0
1.371687E+06	0.0000E+00	0.0000E+00	1.610000E+02	4.533280E+03	-2.172948E+02	0.000000E+00	0	0
1.435036E+06	0.0000E+00	0.0000E+00	1.620000E+02	4.530289E+03	-2.241207E+02	0.000000E+00	0	0
1.501311E+06	0.0000E+00	0.0000E+00	1.630000E+02	4.526934E+03	-2.316642E+02	0.000000E+00	0	0
1.570646E+06	0.0000E+00	0.0000E+00	1.640000E+02	4.523342E+03	-2.387650E+02	0.000000E+00	0	0
1.643184E+06	0.0000E+00	0.0000E+00	1.650000E+02	4.519733E+03	-2.474153E+02	0.000000E+00	0	0
1.719072E+06	0.0000E+00	0.0000E+00	1.660000E+02	4.515999E+03	-2.549760E+02	0.000000E+00	0	0
1.798465E+06	0.0000E+00	0.0000E+00	1.670000E+02	4.512373E+03	-2.642365E+02	0.000000E+00	0	0
1.881524E+06	0.0000E+00	0.0000E+00	1.680000E+02	4.508243E+03	-2.728550E+02	0.000000E+00	0	0
1.968419E+06	0.0000E+00	0.0000E+00	1.690000E+02	4.504334E+03	-2.826841E+02	0.000000E+00	0	0
2.059328E+06	0.0000E+00	0.0000E+00	1.700000E+02	4.499951E+03	-2.917903E+02	0.000000E+00	0	0
2.154435E+06	0.0000E+00	0.0000E+00	1.710000E+02	4.495977E+03	-3.015515E+02	0.000000E+00	0	0
2.253934E+06	0.0000E+00	0.0000E+00	1.720000E+02	4.491721E+03	-3.114706E+02	0.000000E+00	0	0
2.358028E+06	0.0000E+00	0.0000E+00	1.730000E+02	4.487184E+03	-3.218811E+02	0.000000E+00	0	0
2.466930E+06	0.0000E+00	0.0000E+00	1.740000E+02	4.482852E+03	-3.332164E+02	0.000000E+00	0	0
2.580862E+06	0.0000E+00	0.0000E+00	1.750000E+02	4.478227E+03	-3.440501E+02	0.000000E+00	0	0
2.700055E+06	0.0000E+00	0.0000E+00	1.760000E+02	4.473279E+03	-3.561393E+02	0.000000E+00	0	0
2.824752E+06	0.0000E+00	0.0000E+00	1.770000E+02	4.468577E+03	-3.681996E+02	0.000000E+00	0	0
2.955209E+06	0.0000E+00	0.0000E+00	1.780000E+02	4.463256E+03	-3.811775E+02	0.000000E+00	0	0
3.091691E+06	0.0000E+00	0.0000E+00	1.790000E+02	4.457910E+03	-3.944620E+02	0.000000E+00	0	0
3.234476E+06	0.0000E+00	0.0000E+00	1.800000E+02	4.452578E+03	-4.079028E+02	0.000000E+00	0	0
3.383855E+06	0.0000E+00	0.0000E+00	1.810000E+02	4.447307E+03	-4.219929E+02	0.000000E+00	0	0
3.540133E+06	0.0000E+00	0.0000E+00	1.820000E+02	4.441314E+03	-4.365258E+02	0.000000E+00	0	0
3.703629E+06	0.0000E+00	0.0000E+00	1.830000E+02	4.435207E+03	-4.524872E+02	0.000000E+00	0	0
3.874675E+06	0.0000E+00	0.0000E+00	1.840000E+02	4.429117E+03	-4.687480E+02	0.000000E+00	0	0
4.053621E+06	0.0000E+00	0.0000E+00	1.850000E+02	4.422225E+03	-4.856498E+02	0.000000E+00	0	0
4.240831E+06	0.0000E+00	0.0000E+00	1.860000E+02	4.415288E+03	-5.033534E+02	0.000000E+00	0	0
4.436687E+06	0.0000E+00	0.0000E+00	1.870000E+02	4.407898E+03	-5.217184E+02	0.000000E+00	0	0
4.641589E+06	0.0000E+00	0.0000E+00	1.880000E+02	4.400276E+03	-5.408671E+02	0.000000E+00	0	0
4.855953E+06	0.0000E+00	0.0000E+00	1.890000E+02	4.392026E+03	-5.606681E+02	0.000000E+00	0	0
5.080218E+06	0.0000E+00	0.0000E+00	1.900000E+02	4.383395E+03	-5.808706E+02	0.000000E+00	0	0
5.314840E+06	0.0000E+00	0.0000E+00	1.910000E+02	4.374551E+03	-6.027144E+02	0.000000E+00	0	0
5.560298E+06	0.0000E+00	0.0000E+00	1.920000E+02	4.364589E+03	-6.250723E+02	0.000000E+00	0	0
5.817091E+06	0.0000E+00	0.0000E+00	1.930000E+02	4.354475E+03	-6.483143E+02	0.000000E+00	0	0
6.085745E+06	0.0000E+00	0.0000E+00	1.940000E+02	4.343612E+03	-6.717687E+02	0.000000E+00	0	0
6.366805E+06	0.0000E+00	0.0000E+00	1.950000E+02	4.332062E+03	-6.966603E+02	0.000000E+00	0	0
6.660846E+06	0.0000E+00	0.0000E+00	1.960000E+02	4.319470E+03	-7.229095E+02	0.000000E+00	0	0
6.968467E+06	0.0000E+00	0.0000E+00	1.970000E+02	4.306830E+03	-7.490115E+02	0.000000E+00	0	0
7.290295E+06	0.0000E+00	0.0000E+00	1.980000E+02	4.292840E+03	-7.762649E+02	0.000000E+00	0	0
7.626986E+06	0.0000E+00	0.0000E+00	1.990000E+02	4.278418E+03	-8.041251E+02	0.000000E+00	0	0
7.979226E+06	0.0000E+00	0.0000E+00	2.000000E+02	4.264283E+03	-8.328895E+02	0.000000E+00	0	0
8.347734E+06	0.0000E+00	0.0000E+00	2.010000E+02	4.250981E+03	-8.618793E+02	0.000000E+00	0	0
9.558553E+06	0.0000E+00	0.0000E+00	2.040000E+02	4.183632E+03	-9.782240E+02	0.000000E+00	0	0
1.000000E+07	0.0000E+00	0.0000E+00	2.050000E+02	4.159559E+03	-1.010773E+03	0.000000E+00	0	0
